Time [s],Packet ID,Address,Data,Read/Write,ACK/NAK
1.320718000000000,,0x01,,Write,NAK
1.320953000000000,0,0x02,0x09,Write,ACK
1.321053000000000,0,0x02,0xFF,Write,ACK
1.321153000000000,0,0x02,0xFF,Write,ACK
1.321253000000000,0,0x02,0xFF,Write,ACK
1.321379000000000,,0x03,,Write,NAK
1.321504000000000,,0x04,,Write,NAK
1.321629000000000,,0x05,,Write,NAK
1.321754000000000,,0x06,,Write,NAK
1.321879000000000,,0x07,,Write,NAK
1.322004000000000,,0x08,,Write,NAK
1.322129000000000,,0x09,,Write,NAK
1.322254000000000,,0x0A,,Write,NAK
1.322479000000000,0,0x0B,0x09,Write,ACK
1.322579000000000,0,0x0B,0xFF,Write,ACK
1.322679000000000,0,0x0B,0xFF,Write,ACK
1.322779000000000,0,0x0B,0xFF,Write,ACK
1.322904000000000,,0x0C,,Write,NAK
2.323076000000000,0,0x02,0x09,Write,ACK
2.323176000000000,0,0x02,0x00,Write,ACK
2.323276000000000,0,0x02,0x00,Write,ACK
2.323377000000000,0,0x02,0x00,Write,ACK
2.323615000000000,0,0x0B,0x09,Write,ACK
2.323715000000000,0,0x0B,0x00,Write,ACK
2.323815000000000,0,0x0B,0x00,Write,ACK
2.323916000000000,0,0x0B,0x00,Write,ACK
3.324089000000000,0,0x02,0x09,Write,ACK
3.324189000000000,0,0x02,0xFF,Write,ACK
3.324289000000000,0,0x02,0xFF,Write,ACK
3.324389000000000,0,0x02,0xFF,Write,ACK
3.824597000000000,0,0x0B,0x09,Write,ACK
3.824697000000000,0,0x0B,0xFF,Write,ACK
3.824797000000000,0,0x0B,0xFF,Write,ACK
3.824897000000000,0,0x0B,0xFF,Write,ACK
4.325381000000000,0,0x02,0x09,Write,ACK
4.325481000000000,0,0x02,0x00,Write,ACK
4.325582000000000,0,0x02,0x00,Write,ACK
4.325682000000000,0,0x02,0x00,Write,ACK
4.825882000000000,0,0x02,0x09,Write,ACK
4.825982000000000,0,0x02,0xFF,Write,ACK
4.826082000000000,0,0x02,0xFF,Write,ACK
4.826182000000000,0,0x02,0xFF,Write,ACK
4.826408000000000,0,0x0B,0x09,Write,ACK
4.826508000000000,0,0x0B,0x00,Write,ACK
4.826608000000000,0,0x0B,0x00,Write,ACK
4.826708000000000,0,0x0B,0x00,Write,ACK
5.326903000000000,0,0x0B,0x09,Write,ACK
5.327003000000000,0,0x0B,0xFF,Write,ACK
5.327103000000000,0,0x0B,0xFF,Write,ACK
5.327203000000000,0,0x0B,0xFF,Write,ACK
5.327428000000000,0,0x02,0x09,Write,ACK
5.327528000000000,0,0x02,0x00,Write,ACK
5.327628000000000,0,0x02,0x00,Write,ACK
5.327729000000000,0,0x02,0x00,Write,ACK
5.827924000000000,0,0x02,0x09,Write,ACK
5.828024000000000,0,0x02,0xFF,Write,ACK
5.828123000000000,0,0x02,0xFF,Write,ACK
5.828223000000000,0,0x02,0xFF,Write,ACK
5.828449000000000,0,0x0B,0x09,Write,ACK
5.828549000000000,0,0x0B,0x00,Write,ACK
5.828649000000000,0,0x0B,0x00,Write,ACK
5.828749000000000,0,0x0B,0x00,Write,ACK
6.328944000000000,0,0x0B,0x09,Write,ACK
6.329044000000000,0,0x0B,0xFF,Write,ACK
6.329144000000000,0,0x0B,0xFF,Write,ACK
6.329244000000000,0,0x0B,0xFF,Write,ACK
6.329469000000000,0,0x02,0x09,Write,ACK
6.329569000000000,0,0x02,0x00,Write,ACK
6.329669000000000,0,0x02,0x00,Write,ACK
6.329770000000000,0,0x02,0x00,Write,ACK
6.829964000000000,0,0x02,0x09,Write,ACK
6.830064000000000,0,0x02,0xFF,Write,ACK
6.830164000000000,0,0x02,0xFF,Write,ACK
6.830264000000000,0,0x02,0xFF,Write,ACK
6.830490000000000,0,0x0B,0x09,Write,ACK
6.830590000000000,0,0x0B,0x00,Write,ACK
6.830690000000000,0,0x0B,0x00,Write,ACK
6.830790000000000,0,0x0B,0x00,Write,ACK
7.330985000000000,0,0x0B,0x09,Write,ACK
7.331085000000000,0,0x0B,0xFF,Write,ACK
7.331185000000000,0,0x0B,0xFF,Write,ACK
7.331285000000000,0,0x0B,0xFF,Write,ACK
7.331510000000000,0,0x02,0x09,Write,ACK
7.331610000000000,0,0x02,0x00,Write,ACK
7.331710000000000,0,0x02,0x00,Write,ACK
7.331810000000000,0,0x02,0x00,Write,ACK
7.832005000000000,0,0x02,0x09,Write,ACK
7.832105000000000,0,0x02,0xFF,Write,ACK
7.832205000000000,0,0x02,0xFF,Write,ACK
7.832305000000000,0,0x02,0xFF,Write,ACK
7.832531000000000,0,0x0B,0x09,Write,ACK
7.832631000000000,0,0x0B,0x00,Write,ACK
7.832731000000000,0,0x0B,0x00,Write,ACK
7.832831000000000,0,0x0B,0x00,Write,ACK
8.333026000000000,0,0x0B,0x09,Write,ACK
8.333126000000000,0,0x0B,0xFF,Write,ACK
8.333226000000000,0,0x0B,0xFF,Write,ACK
8.333326000000000,0,0x0B,0xFF,Write,ACK
8.333551000000000,0,0x02,0x09,Write,ACK
8.333651000000000,0,0x02,0x00,Write,ACK
8.333750999999999,0,0x02,0x00,Write,ACK
8.333850999999999,0,0x02,0x00,Write,ACK
8.834046000000001,0,0x02,0x09,Write,ACK
8.834146000000000,0,0x02,0xFF,Write,ACK
8.834246000000000,0,0x02,0xFF,Write,ACK
8.834346000000000,0,0x02,0xFF,Write,ACK
8.834572000000000,0,0x0B,0x09,Write,ACK
8.834671999999999,0,0x0B,0x00,Write,ACK
8.834771999999999,0,0x0B,0x00,Write,ACK
8.834872000000001,0,0x0B,0x00,Write,ACK
9.335067000000000,0,0x0B,0x09,Write,ACK
9.335167000000000,0,0x0B,0xFF,Write,ACK
9.335267000000000,0,0x0B,0xFF,Write,ACK
9.335366000000000,0,0x0B,0xFF,Write,ACK
9.335592000000000,0,0x02,0x09,Write,ACK
9.335692000000000,0,0x02,0x00,Write,ACK
9.335792000000000,0,0x02,0x00,Write,ACK
9.335891999999999,0,0x02,0x00,Write,ACK
9.836086999999999,0,0x02,0x09,Write,ACK
9.836187000000001,0,0x02,0xFF,Write,ACK
9.836287000000000,0,0x02,0xFF,Write,ACK
9.836390000000000,0,0x02,0xFF,Write,ACK
9.836615000000000,0,0x0B,0x09,Write,ACK
9.836715999999999,0,0x0B,0x00,Write,ACK
9.836816000000001,0,0x0B,0x00,Write,ACK
9.836916000000000,0,0x0B,0x00,Write,ACK
10.337109999999999,0,0x0B,0x09,Write,ACK
10.337211000000000,0,0x0B,0xFF,Write,ACK
10.337310000000000,0,0x0B,0xFF,Write,ACK
10.337410000000000,0,0x0B,0xFF,Write,ACK
10.337636000000000,0,0x02,0x09,Write,ACK
10.337736000000000,0,0x02,0x00,Write,ACK
10.337835999999999,0,0x02,0x00,Write,ACK
10.337935999999999,0,0x02,0x00,Write,ACK
10.838131000000001,0,0x02,0x09,Write,ACK
10.838231000000000,0,0x02,0xFF,Write,ACK
10.838331000000000,0,0x02,0xFF,Write,ACK
10.838431000000000,0,0x02,0xFF,Write,ACK
10.838656000000000,0,0x0B,0x09,Write,ACK
10.838756000000000,0,0x0B,0x00,Write,ACK
10.838857000000001,0,0x0B,0x00,Write,ACK
10.838957000000001,0,0x0B,0x00,Write,ACK
11.339150999999999,0,0x0B,0x09,Write,ACK
11.339251000000001,0,0x0B,0xFF,Write,ACK
11.339351000000001,0,0x0B,0xFF,Write,ACK
11.339451000000000,0,0x0B,0xFF,Write,ACK
11.339677000000000,0,0x02,0x09,Write,ACK
11.339777000000000,0,0x02,0x00,Write,ACK
11.339877000000000,0,0x02,0x00,Write,ACK
11.339976999999999,0,0x02,0x00,Write,ACK
11.840172000000001,0,0x02,0x09,Write,ACK
11.840272000000001,0,0x02,0xFF,Write,ACK
11.840372000000000,0,0x02,0xFF,Write,ACK
11.840472000000000,0,0x02,0xFF,Write,ACK
11.840697000000000,0,0x0B,0x09,Write,ACK
11.840797000000000,0,0x0B,0x00,Write,ACK
11.840897999999999,0,0x0B,0x00,Write,ACK
11.840998000000001,0,0x0B,0x00,Write,ACK
